Title: test mos1
Date: Sun Aug  4 14:46:48  2024
Plotname: DC transfer characteristic
Flags: real
No. Variables: 13
No. Points: 51
Variables:
	0	v(v-sweep)	voltage
	1	v(nvd)	voltage
	2	v(nvf)	voltage
	3	v(nvg)	voltage
	4	v(nvs1)	voltage
	5	v(nvs2)	voltage
	6	v(nvs3)	voltage
	7	i(vb)	current
	8	i(vd)	current
	9	i(vg)	current
	10	i(vs1)	current
	11	i(vs2)	current
	12	i(vs3)	current
Values:
 0	0.000000000000000e+00
	0.000000000000000e+00
	0.000000000000000e+00
	5.000000000000000e+00
	0.000000000000000e+00
	0.000000000000000e+00
	0.000000000000000e+00
	0.000000000000000e+00
	0.000000000000000e+00
	0.000000000000000e+00
	0.000000000000000e+00
	0.000000000000000e+00
	0.000000000000000e+00

 1	1.000000000000000e-01
	1.000000000000000e-01
	0.000000000000000e+00
	5.000000000000000e+00
	0.000000000000000e+00
	0.000000000000000e+00
	0.000000000000000e+00
	3.300000000000000e-13
	-5.940000033000001e-05
	0.000000000000000e+00
	2.970000000000001e-05
	1.980000000000000e-05
	9.900000000000002e-06

 2	2.000000000000000e-01
	2.000000000000000e-01
	0.000000000000000e+00
	5.000000000000000e+00
	0.000000000000000e+00
	0.000000000000000e+00
	0.000000000000000e+00
	6.300000000000001e-13
	-1.176000006300001e-04
	0.000000000000000e+00
	5.880000000000002e-05
	3.920000000000002e-05
	1.960000000000001e-05

 3	3.000000000000000e-01
	3.000000000000000e-01
	0.000000000000000e+00
	5.000000000000000e+00
	0.000000000000000e+00
	0.000000000000000e+00
	0.000000000000000e+00
	9.300000000000003e-13
	-1.746000009300000e-04
	0.000000000000000e+00
	8.730000000000001e-05
	5.820000000000001e-05
	2.910000000000001e-05

 4	4.000000000000000e-01
	4.000000000000000e-01
	0.000000000000000e+00
	5.000000000000000e+00
	0.000000000000000e+00
	0.000000000000000e+00
	0.000000000000000e+00
	1.230000000000000e-12
	-2.304000012300001e-04
	0.000000000000000e+00
	1.152000000000000e-04
	7.680000000000001e-05
	3.840000000000001e-05

 5	5.000000000000000e-01
	5.000000000000000e-01
	0.000000000000000e+00
	5.000000000000000e+00
	0.000000000000000e+00
	0.000000000000000e+00
	0.000000000000000e+00
	1.530000000000000e-12
	-2.850000015300001e-04
	0.000000000000000e+00
	1.425000000000000e-04
	9.500000000000001e-05
	4.750000000000000e-05

 6	6.000000000000000e-01
	6.000000000000000e-01
	0.000000000000000e+00
	5.000000000000000e+00
	0.000000000000000e+00
	0.000000000000000e+00
	0.000000000000000e+00
	1.830000000000000e-12
	-3.384000018300000e-04
	0.000000000000000e+00
	1.692000000000000e-04
	1.128000000000000e-04
	5.640000000000000e-05

 7	7.000000000000000e-01
	7.000000000000000e-01
	0.000000000000000e+00
	5.000000000000000e+00
	0.000000000000000e+00
	0.000000000000000e+00
	0.000000000000000e+00
	2.130000000000000e-12
	-3.906000021300001e-04
	0.000000000000000e+00
	1.953000000000001e-04
	1.302000000000000e-04
	6.510000000000001e-05

 8	7.999999999999999e-01
	7.999999999999999e-01
	0.000000000000000e+00
	5.000000000000000e+00
	0.000000000000000e+00
	0.000000000000000e+00
	0.000000000000000e+00
	2.430000000000000e-12
	-4.416000024300000e-04
	0.000000000000000e+00
	2.208000000000000e-04
	1.472000000000000e-04
	7.360000000000000e-05

 9	8.999999999999999e-01
	8.999999999999999e-01
	0.000000000000000e+00
	5.000000000000000e+00
	0.000000000000000e+00
	0.000000000000000e+00
	0.000000000000000e+00
	2.730000000000000e-12
	-4.914000027299999e-04
	0.000000000000000e+00
	2.457000000000000e-04
	1.638000000000000e-04
	8.189999999999998e-05

 10	9.999999999999999e-01
	9.999999999999999e-01
	0.000000000000000e+00
	5.000000000000000e+00
	0.000000000000000e+00
	0.000000000000000e+00
	0.000000000000000e+00
	3.030000000000000e-12
	-5.400000030300000e-04
	0.000000000000000e+00
	2.700000000000001e-04
	1.800000000000000e-04
	8.999999999999999e-05

 11	1.100000000000000e+00
	1.100000000000000e+00
	0.000000000000000e+00
	5.000000000000000e+00
	0.000000000000000e+00
	0.000000000000000e+00
	0.000000000000000e+00
	3.330000000000000e-12
	-5.874000033300001e-04
	0.000000000000000e+00
	2.937000000000000e-04
	1.958000000000000e-04
	9.789999999999999e-05

 12	1.200000000000000e+00
	1.200000000000000e+00
	0.000000000000000e+00
	5.000000000000000e+00
	0.000000000000000e+00
	0.000000000000000e+00
	0.000000000000000e+00
	3.630000000000000e-12
	-6.342000036300001e-04
	0.000000000000000e+00
	3.171000000000001e-04
	2.114000000000000e-04
	1.057000000000000e-04

 13	1.300000000000000e+00
	1.300000000000000e+00
	0.000000000000000e+00
	5.000000000000000e+00
	0.000000000000000e+00
	0.000000000000000e+00
	0.000000000000000e+00
	3.930000000000000e-12
	-6.792000039300001e-04
	0.000000000000000e+00
	3.396000000000001e-04
	2.264000000000000e-04
	1.132000000000000e-04

 14	1.400000000000000e+00
	1.400000000000000e+00
	0.000000000000000e+00
	5.000000000000000e+00
	0.000000000000000e+00
	0.000000000000000e+00
	0.000000000000000e+00
	4.230000000000000e-12
	-7.230000042300000e-04
	0.000000000000000e+00
	3.615000000000000e-04
	2.410000000000000e-04
	1.205000000000000e-04

 15	1.500000000000000e+00
	1.500000000000000e+00
	0.000000000000000e+00
	5.000000000000000e+00
	0.000000000000000e+00
	0.000000000000000e+00
	0.000000000000000e+00
	4.530000000000000e-12
	-7.656000045300003e-04
	0.000000000000000e+00
	3.828000000000001e-04
	2.552000000000001e-04
	1.276000000000000e-04

 16	1.600000000000000e+00
	1.600000000000000e+00
	0.000000000000000e+00
	5.000000000000000e+00
	0.000000000000000e+00
	0.000000000000000e+00
	0.000000000000000e+00
	4.830000000000001e-12
	-8.070000048300001e-04
	0.000000000000000e+00
	4.035000000000002e-04
	2.690000000000001e-04
	1.345000000000000e-04

 17	1.700000000000000e+00
	1.700000000000000e+00
	0.000000000000000e+00
	5.000000000000000e+00
	0.000000000000000e+00
	0.000000000000000e+00
	0.000000000000000e+00
	5.130000000000001e-12
	-8.472000051300000e-04
	0.000000000000000e+00
	4.236000000000001e-04
	2.824000000000000e-04
	1.412000000000000e-04

 18	1.800000000000000e+00
	1.800000000000000e+00
	0.000000000000000e+00
	5.000000000000000e+00
	0.000000000000000e+00
	0.000000000000000e+00
	0.000000000000000e+00
	5.430000000000002e-12
	-8.862000054300001e-04
	0.000000000000000e+00
	4.431000000000002e-04
	2.954000000000001e-04
	1.477000000000001e-04

 19	1.900000000000001e+00
	1.900000000000001e+00
	0.000000000000000e+00
	5.000000000000000e+00
	0.000000000000000e+00
	0.000000000000000e+00
	0.000000000000000e+00
	5.730000000000002e-12
	-9.240000057300003e-04
	0.000000000000000e+00
	4.620000000000002e-04
	3.080000000000001e-04
	1.540000000000000e-04

 20	2.000000000000000e+00
	2.000000000000000e+00
	0.000000000000000e+00
	5.000000000000000e+00
	0.000000000000000e+00
	0.000000000000000e+00
	0.000000000000000e+00
	6.030000000000002e-12
	-9.606000060300003e-04
	0.000000000000000e+00
	4.803000000000001e-04
	3.202000000000000e-04
	1.601000000000000e-04

 21	2.100000000000001e+00
	2.100000000000001e+00
	0.000000000000000e+00
	5.000000000000000e+00
	0.000000000000000e+00
	0.000000000000000e+00
	0.000000000000000e+00
	6.330000000000002e-12
	-9.960000063300002e-04
	0.000000000000000e+00
	4.980000000000002e-04
	3.320000000000001e-04
	1.660000000000001e-04

 22	2.200000000000001e+00
	2.200000000000001e+00
	0.000000000000000e+00
	5.000000000000000e+00
	0.000000000000000e+00
	0.000000000000000e+00
	0.000000000000000e+00
	6.630000000000003e-12
	-1.030200006630000e-03
	0.000000000000000e+00
	5.151000000000002e-04
	3.434000000000000e-04
	1.717000000000000e-04

 23	2.300000000000001e+00
	2.300000000000001e+00
	0.000000000000000e+00
	5.000000000000000e+00
	0.000000000000000e+00
	0.000000000000000e+00
	0.000000000000000e+00
	6.930000000000003e-12
	-1.063200006930000e-03
	0.000000000000000e+00
	5.316000000000001e-04
	3.544000000000001e-04
	1.772000000000001e-04

 24	2.400000000000001e+00
	2.400000000000001e+00
	0.000000000000000e+00
	5.000000000000000e+00
	0.000000000000000e+00
	0.000000000000000e+00
	0.000000000000000e+00
	7.230000000000003e-12
	-1.095000007230000e-03
	0.000000000000000e+00
	5.475000000000002e-04
	3.650000000000001e-04
	1.825000000000001e-04

 25	2.500000000000001e+00
	2.500000000000001e+00
	0.000000000000000e+00
	5.000000000000000e+00
	0.000000000000000e+00
	0.000000000000000e+00
	0.000000000000000e+00
	7.530000000000004e-12
	-1.125600007530000e-03
	0.000000000000000e+00
	5.628000000000002e-04
	3.752000000000001e-04
	1.876000000000001e-04

 26	2.600000000000001e+00
	2.600000000000001e+00
	0.000000000000000e+00
	5.000000000000000e+00
	0.000000000000000e+00
	0.000000000000000e+00
	0.000000000000000e+00
	7.830000000000004e-12
	-1.155000007830001e-03
	0.000000000000000e+00
	5.775000000000002e-04
	3.850000000000001e-04
	1.925000000000000e-04

 27	2.700000000000001e+00
	2.700000000000001e+00
	0.000000000000000e+00
	5.000000000000000e+00
	0.000000000000000e+00
	0.000000000000000e+00
	0.000000000000000e+00
	8.130000000000004e-12
	-1.183200008130000e-03
	0.000000000000000e+00
	5.916000000000002e-04
	3.944000000000000e-04
	1.972000000000000e-04

 28	2.800000000000001e+00
	2.800000000000001e+00
	0.000000000000000e+00
	5.000000000000000e+00
	0.000000000000000e+00
	0.000000000000000e+00
	0.000000000000000e+00
	8.430000000000005e-12
	-1.210200008430000e-03
	0.000000000000000e+00
	6.051000000000002e-04
	4.034000000000002e-04
	2.017000000000001e-04

 29	2.900000000000001e+00
	2.900000000000001e+00
	0.000000000000000e+00
	5.000000000000000e+00
	0.000000000000000e+00
	0.000000000000000e+00
	0.000000000000000e+00
	8.730000000000005e-12
	-1.236000008730000e-03
	0.000000000000000e+00
	6.180000000000003e-04
	4.120000000000001e-04
	2.060000000000001e-04

 30	3.000000000000001e+00
	3.000000000000001e+00
	0.000000000000000e+00
	5.000000000000000e+00
	0.000000000000000e+00
	0.000000000000000e+00
	0.000000000000000e+00
	9.030000000000005e-12
	-1.260600009030001e-03
	0.000000000000000e+00
	6.303000000000003e-04
	4.202000000000002e-04
	2.101000000000001e-04

 31	3.100000000000001e+00
	3.100000000000001e+00
	0.000000000000000e+00
	5.000000000000000e+00
	0.000000000000000e+00
	0.000000000000000e+00
	0.000000000000000e+00
	9.330000000000005e-12
	-1.284000009330000e-03
	0.000000000000000e+00
	6.420000000000002e-04
	4.280000000000001e-04
	2.140000000000001e-04

 32	3.200000000000002e+00
	3.200000000000002e+00
	0.000000000000000e+00
	5.000000000000000e+00
	0.000000000000000e+00
	0.000000000000000e+00
	0.000000000000000e+00
	9.630000000000005e-12
	-1.306200009630000e-03
	0.000000000000000e+00
	6.531000000000002e-04
	4.354000000000001e-04
	2.177000000000000e-04

 33	3.300000000000002e+00
	3.300000000000002e+00
	0.000000000000000e+00
	5.000000000000000e+00
	0.000000000000000e+00
	0.000000000000000e+00
	0.000000000000000e+00
	9.930000000000006e-12
	-1.327200009930000e-03
	0.000000000000000e+00
	6.636000000000003e-04
	4.424000000000001e-04
	2.212000000000001e-04

 34	3.400000000000002e+00
	3.400000000000002e+00
	0.000000000000000e+00
	5.000000000000000e+00
	0.000000000000000e+00
	0.000000000000000e+00
	0.000000000000000e+00
	1.023000000000001e-11
	-1.347000010230000e-03
	0.000000000000000e+00
	6.735000000000003e-04
	4.490000000000001e-04
	2.245000000000001e-04

 35	3.500000000000002e+00
	3.500000000000002e+00
	0.000000000000000e+00
	5.000000000000000e+00
	0.000000000000000e+00
	0.000000000000000e+00
	0.000000000000000e+00
	1.053000000000001e-11
	-1.365600010530001e-03
	0.000000000000000e+00
	6.828000000000003e-04
	4.552000000000001e-04
	2.276000000000001e-04

 36	3.600000000000002e+00
	3.600000000000002e+00
	0.000000000000000e+00
	5.000000000000000e+00
	0.000000000000000e+00
	0.000000000000000e+00
	0.000000000000000e+00
	1.083000000000001e-11
	-1.383000010830000e-03
	0.000000000000000e+00
	6.915000000000003e-04
	4.610000000000001e-04
	2.305000000000000e-04

 37	3.700000000000002e+00
	3.700000000000002e+00
	0.000000000000000e+00
	5.000000000000000e+00
	0.000000000000000e+00
	0.000000000000000e+00
	0.000000000000000e+00
	1.113000000000001e-11
	-1.399200011130001e-03
	0.000000000000000e+00
	6.996000000000003e-04
	4.664000000000002e-04
	2.332000000000001e-04

 38	3.800000000000002e+00
	3.800000000000002e+00
	0.000000000000000e+00
	5.000000000000000e+00
	0.000000000000000e+00
	0.000000000000000e+00
	0.000000000000000e+00
	1.143000000000001e-11
	-1.414200011430001e-03
	0.000000000000000e+00
	7.071000000000002e-04
	4.714000000000002e-04
	2.357000000000001e-04

 39	3.900000000000002e+00
	3.900000000000002e+00
	0.000000000000000e+00
	5.000000000000000e+00
	0.000000000000000e+00
	0.000000000000000e+00
	0.000000000000000e+00
	1.173000000000001e-11
	-1.428000011730000e-03
	0.000000000000000e+00
	7.140000000000000e-04
	4.760000000000001e-04
	2.380000000000000e-04

 40	4.000000000000002e+00
	4.000000000000002e+00
	0.000000000000000e+00
	5.000000000000000e+00
	0.000000000000000e+00
	0.000000000000000e+00
	0.000000000000000e+00
	1.203000000000001e-11
	-1.440600012030000e-03
	0.000000000000000e+00
	7.203000000000003e-04
	4.802000000000002e-04
	2.401000000000001e-04

 41	4.100000000000001e+00
	4.100000000000001e+00
	0.000000000000000e+00
	5.000000000000000e+00
	0.000000000000000e+00
	0.000000000000000e+00
	0.000000000000000e+00
	1.233000000000001e-11
	-1.452000012330000e-03
	0.000000000000000e+00
	7.260000000000003e-04
	4.840000000000001e-04
	2.420000000000000e-04

 42	4.200000000000001e+00
	4.200000000000001e+00
	0.000000000000000e+00
	5.000000000000000e+00
	0.000000000000000e+00
	0.000000000000000e+00
	0.000000000000000e+00
	1.263000000000000e-11
	-1.462200012630000e-03
	0.000000000000000e+00
	7.311000000000003e-04
	4.874000000000001e-04
	2.437000000000000e-04

 43	4.300000000000001e+00
	4.300000000000001e+00
	0.000000000000000e+00
	5.000000000000000e+00
	0.000000000000000e+00
	0.000000000000000e+00
	0.000000000000000e+00
	1.293000000000000e-11
	-1.471200012930000e-03
	0.000000000000000e+00
	7.356000000000002e-04
	4.904000000000000e-04
	2.452000000000000e-04

 44	4.400000000000000e+00
	4.400000000000000e+00
	0.000000000000000e+00
	5.000000000000000e+00
	0.000000000000000e+00
	0.000000000000000e+00
	0.000000000000000e+00
	1.323000000000000e-11
	-1.479000013230000e-03
	0.000000000000000e+00
	7.395000000000001e-04
	4.929999999999999e-04
	2.465000000000000e-04

 45	4.500000000000000e+00
	4.500000000000000e+00
	0.000000000000000e+00
	5.000000000000000e+00
	0.000000000000000e+00
	0.000000000000000e+00
	0.000000000000000e+00
	1.353000000000000e-11
	-1.485600013530000e-03
	0.000000000000000e+00
	7.428000000000002e-04
	4.952000000000000e-04
	2.476000000000000e-04

 46	4.600000000000000e+00
	4.600000000000000e+00
	0.000000000000000e+00
	5.000000000000000e+00
	0.000000000000000e+00
	0.000000000000000e+00
	0.000000000000000e+00
	1.383000000000000e-11
	-1.491000013830000e-03
	0.000000000000000e+00
	7.455000000000001e-04
	4.969999999999999e-04
	2.485000000000000e-04

 47	4.699999999999999e+00
	4.699999999999999e+00
	0.000000000000000e+00
	5.000000000000000e+00
	0.000000000000000e+00
	0.000000000000000e+00
	0.000000000000000e+00
	1.413000000000000e-11
	-1.495200014130000e-03
	0.000000000000000e+00
	7.476000000000002e-04
	4.984000000000001e-04
	2.492000000000000e-04

 48	4.799999999999999e+00
	4.799999999999999e+00
	0.000000000000000e+00
	5.000000000000000e+00
	0.000000000000000e+00
	0.000000000000000e+00
	0.000000000000000e+00
	1.443000000000000e-11
	-1.498200014430000e-03
	0.000000000000000e+00
	7.490999999999999e-04
	4.994000000000000e-04
	2.497000000000000e-04

 49	4.899999999999999e+00
	4.899999999999999e+00
	0.000000000000000e+00
	5.000000000000000e+00
	0.000000000000000e+00
	0.000000000000000e+00
	0.000000000000000e+00
	1.473000000000000e-11
	-1.500000014730000e-03
	0.000000000000000e+00
	7.500000000000000e-04
	5.000000000000000e-04
	2.500000000000000e-04

 50	4.999999999999998e+00
	4.999999999999998e+00
	0.000000000000000e+00
	5.000000000000000e+00
	0.000000000000000e+00
	0.000000000000000e+00
	0.000000000000000e+00
	1.503000000000000e-11
	-1.500600015030000e-03
	0.000000000000000e+00
	7.503000000000001e-04
	5.002000000000000e-04
	2.501000000000000e-04

