Title: * C:\Users\georgtree1\Documents\LTspice\Draft1.asc
Date: Sun Jan 26 14:54:55 2025
Plotname: DC transfer characteristic
Flags: real forward
No. Variables: 4
No. Points:          201
Offset:    0.0000000000000000e+00
Command: Linear Technology Corporation LTspice
Variables:
	0	v1	voltage
	1	V(n001)	voltage
	2	I(D1)	device_current
	3	I(V1)	device_current
Values:
0		0.000000000000000e+00
	0.000000000000000e+00
	0.000000000000000e+00
	0.000000000000000e+00
1		1.000000000000000e-02
	1.000000000000000e-02
	6.222453383196963e-10
	-6.222453385884563e-10
2		2.000000000000000e-02
	2.000000000000000e-02
	1.398132264061469e-09
	-1.398132269680996e-09
3		3.000000000000000e-02
	3.000000000000000e-02
	2.365597759492790e-09
	-2.365597759346194e-09
4		4.000000000000000e-02
	4.000000000000000e-02
	3.571946179271418e-09
	-3.571946183278385e-09
5		5.000000000000000e-02
	5.000000000000000e-02
	5.076162152980191e-09
	-5.076162143402563e-09
6		6.000000000000000e-02
	6.000000000000000e-02
	6.951794798070817e-09
	-6.951794792597887e-09
7		7.000000000000001e-02
	7.000000000000001e-02
	9.290553777196851e-09
	-9.290553770746612e-09
8		8.000000000000000e-02
	8.000000000000000e-02
	1.220679367445453e-08
	-1.220679368696409e-08
9		9.000000000000000e-02
	9.000000000000000e-02
	1.584310521682403e-08
	-1.584310521662857e-08
10		9.999999999999999e-02
	9.999999999999999e-02
	2.037728751874299e-08
	-2.037728749626488e-08
11		1.100000000000000e-01
	1.100000000000000e-01
	2.603104144112822e-08
	-2.603104143350521e-08
12		1.200000000000000e-01
	1.200000000000000e-01
	3.308080982951163e-08
	-3.308080981367922e-08
13		1.300000000000000e-01
	1.300000000000000e-01
	4.187129438163414e-08
	-4.187129437616122e-08
14		1.400000000000000e-01
	1.400000000000000e-01
	5.283230963435289e-08
	-5.283230963826213e-08
15		1.500000000000000e-01
	1.500000000000000e-01
	6.649979872319634e-08
	-6.649979872319634e-08
16		1.600000000000000e-01
	1.600000000000000e-01
	8.354203884817411e-08
	-8.354203889782141e-08
17		1.700000000000000e-01
	1.700000000000000e-01
	1.047923157188906e-07
	-1.047923157138086e-07
18		1.800000000000000e-01
	1.800000000000000e-01
	1.312896669315272e-07
	-1.312896669158903e-07
19		1.900000000000000e-01
	1.900000000000000e-01
	1.643296850316939e-07
	-1.643296850817322e-07
20		2.000000000000000e-01
	2.000000000000000e-01
	2.055278638496494e-07
	-2.055278638390945e-07
21		2.100000000000000e-01
	2.100000000000000e-01
	2.568985852489759e-07
	-2.568985852380301e-07
22		2.200000000000001e-01
	2.200000000000001e-01
	3.209536079786300e-07
	-3.209536080239772e-07
23		2.300000000000001e-01
	2.300000000000001e-01
	4.008248733411591e-07
	-4.008248733478048e-07
24		2.400000000000001e-01
	2.400000000000001e-01
	5.004176287452713e-07
	-5.004176287237705e-07
25		2.500000000000001e-01
	2.500000000000001e-01
	6.246013563070120e-07
	-6.246013563027120e-07
26		2.600000000000001e-01
	2.600000000000001e-01
	7.794478362821902e-07
	-7.794478362743718e-07
27		2.700000000000001e-01
	2.700000000000001e-01
	9.725279780436242e-07
	-9.725279780381513e-07
28		2.800000000000001e-01
	2.800000000000001e-01
	1.213281924067724e-06
	-1.213281924095089e-06
29		2.900000000000001e-01
	2.900000000000001e-01
	1.513480506120743e-06
	-1.513480506143416e-06
30		3.000000000000001e-01
	3.000000000000001e-01
	1.887800593175582e-06
	-1.887800593181055e-06
31		3.100000000000001e-01
	3.100000000000001e-01
	2.354542421851752e-06
	-2.354542421811878e-06
32		3.200000000000001e-01
	3.200000000000001e-01
	2.936523927874812e-06
	-2.936523927798973e-06
33		3.300000000000001e-01
	3.300000000000001e-01
	3.662195709342836e-06
	-3.662195709353000e-06
34		3.400000000000001e-01
	3.400000000000001e-01
	4.567030997709016e-06
	-4.567030997715271e-06
35		3.500000000000001e-01
	3.500000000000001e-01
	5.695258372301259e-06
	-5.695258372240275e-06
36		3.600000000000002e-01
	3.600000000000002e-01
	7.102021589269328e-06
	-7.102021589266982e-06
37		3.700000000000002e-01
	3.700000000000002e-01
	8.856071590270453e-06
	-8.856071590290782e-06
38		3.800000000000002e-01
	3.800000000000002e-01
	1.104312146558807e-05
	-1.104312146560371e-05
39		3.900000000000002e-01
	3.900000000000002e-01
	1.377002710506682e-05
	-1.377002710511999e-05
40		4.000000000000002e-01
	4.000000000000002e-01
	1.716999590266782e-05
	-1.716999590262169e-05
41		4.100000000000002e-01
	4.100000000000002e-01
	2.140907502462697e-05
	-2.140907502456990e-05
42		4.200000000000002e-01
	4.200000000000002e-01
	2.669423155545559e-05
	-2.669423155554629e-05
43		4.300000000000002e-01
	4.300000000000002e-01
	3.328341193899441e-05
	-3.328341193897799e-05
44		4.400000000000002e-01
	4.400000000000002e-01
	4.149806069198327e-05
	-4.149806069198014e-05
45		4.500000000000002e-01
	4.500000000000002e-01
	5.173869203656178e-05
	-5.173869203656256e-05
46		4.600000000000002e-01
	4.600000000000002e-01
	6.450424721072259e-05
	-6.450424721071712e-05
47		4.700000000000003e-01
	4.700000000000003e-01
	8.041613957371352e-05
	-8.041613957365801e-05
48		4.800000000000003e-01
	4.800000000000003e-01
	1.002480944587506e-04
	-1.002480944587436e-04
49		4.900000000000003e-01
	4.900000000000003e-01
	1.249631364463955e-04
	-1.249631364463877e-04
50		5.000000000000002e-01
	5.000000000000002e-01
	1.557593681371509e-04
	-1.557593681371650e-04
51		5.100000000000002e-01
	5.100000000000002e-01
	1.941265250086980e-04
	-1.941265250087199e-04
52		5.200000000000002e-01
	5.200000000000002e-01
	2.419156806000093e-04
	-2.419156805999467e-04
53		5.300000000000002e-01
	5.300000000000002e-01
	3.014249091607600e-04
	-3.014249091608523e-04
54		5.400000000000003e-01
	5.400000000000003e-01
	3.755041727704668e-04
	-3.755041727704356e-04
55		5.500000000000003e-01
	5.500000000000003e-01
	4.676831537255733e-04
	-4.676831537255843e-04
56		5.600000000000003e-01
	5.600000000000003e-01
	5.823261416283248e-04
	-5.823261416283421e-04
57		5.700000000000003e-01
	5.700000000000003e-01
	7.248183099724736e-04
	-7.248183099723970e-04
58		5.800000000000003e-01
	5.800000000000003e-01
	9.017876253043182e-04
	-9.017876253043511e-04
59		5.900000000000003e-01
	5.900000000000003e-01
	1.121365993399178e-03
	-1.121365993399293e-03
60		6.000000000000003e-01
	6.000000000000003e-01
	1.393491735195757e-03
	-1.393491735195651e-03
61		6.100000000000003e-01
	6.100000000000003e-01
	1.730252664203783e-03
	-1.730252664203791e-03
62		6.200000000000003e-01
	6.200000000000003e-01
	2.146264368307189e-03
	-2.146264368307227e-03
63		6.300000000000003e-01
	6.300000000000003e-01
	2.659071195737025e-03
	-2.659071195736828e-03
64		6.400000000000003e-01
	6.400000000000003e-01
	3.289547410815055e-03
	-3.289547410814997e-03
65		6.500000000000004e-01
	6.500000000000004e-01
	4.062262878886207e-03
	-4.062262878886225e-03
66		6.600000000000004e-01
	6.600000000000004e-01
	5.005762102556554e-03
	-5.005762102556544e-03
67		6.700000000000004e-01
	6.700000000000004e-01
	6.152689446332259e-03
	-6.152689446332182e-03
68		6.800000000000004e-01
	6.800000000000004e-01
	7.539680820589527e-03
	-7.539680820589645e-03
69		6.900000000000004e-01
	6.900000000000004e-01
	9.206938858899918e-03
	-9.206938858899782e-03
70		7.000000000000004e-01
	7.000000000000004e-01
	1.119742189264323e-02
	-1.119742189264317e-02
71		7.100000000000004e-01
	7.100000000000004e-01
	1.355561299716730e-02
	-1.355561299716723e-02
72		7.200000000000004e-01
	7.200000000000004e-01
	1.632589555296955e-02
	-1.632589555296970e-02
73		7.300000000000004e-01
	7.300000000000004e-01
	1.955063898714198e-02
	-1.955063898714204e-02
74		7.400000000000004e-01
	7.400000000000004e-01
	2.326817523414253e-02
	-2.326817523414260e-02
75		7.500000000000004e-01
	7.500000000000004e-01
	2.751089881889759e-02
	-2.751089881889768e-02
76		7.600000000000005e-01
	7.600000000000005e-01
	3.230372947918281e-02
	-3.230372947918281e-02
77		7.700000000000005e-01
	7.700000000000005e-01
	3.766312735680662e-02
	-3.766312735680666e-02
78		7.800000000000005e-01
	7.800000000000005e-01
	4.359675793608147e-02
	-4.359675793608164e-02
79		7.900000000000005e-01
	7.900000000000005e-01
	5.010379408047810e-02
	-5.010379408047805e-02
80		8.000000000000005e-01
	8.000000000000005e-01
	5.717574699245896e-02
	-5.717574699245898e-02
81		8.100000000000005e-01
	8.100000000000005e-01
	6.479765920851821e-02
	-6.479765920851821e-02
82		8.200000000000005e-01
	8.200000000000005e-01
	7.294947754905327e-02
	-7.294947754905312e-02
83		8.300000000000005e-01
	8.300000000000005e-01
	8.160744459889288e-02
	-8.160744459889280e-02
84		8.400000000000005e-01
	8.400000000000005e-01
	9.074538863763894e-02
	-9.074538863763904e-02
85		8.500000000000005e-01
	8.500000000000005e-01
	1.003358387114744e-01
	-1.003358387114743e-01
86		8.600000000000005e-01
	8.600000000000005e-01
	1.103509329370489e-01
	-1.103509329370489e-01
87		8.700000000000006e-01
	8.700000000000006e-01
	1.207631189247381e-01
	-1.207631189247382e-01
88		8.800000000000006e-01
	8.800000000000006e-01
	1.315456646161529e-01
	-1.315456646161528e-01
89		8.900000000000006e-01
	8.900000000000006e-01
	1.426730076252549e-01
	-1.426730076252549e-01
90		9.000000000000006e-01
	9.000000000000006e-01
	1.541209740611105e-01
	-1.541209740611105e-01
91		9.100000000000006e-01
	9.100000000000006e-01
	1.658668964060943e-01
	-1.658668964060943e-01
92		9.200000000000006e-01
	9.200000000000006e-01
	1.778896563828568e-01
	-1.778896563828569e-01
93		9.300000000000006e-01
	9.300000000000006e-01
	1.901696742739252e-01
	-1.901696742739254e-01
94		9.400000000000006e-01
	9.400000000000006e-01
	2.026888617092069e-01
	-2.026888617092069e-01
95		9.500000000000006e-01
	9.500000000000006e-01
	2.154305509506114e-01
	-2.154305509506114e-01
96		9.600000000000006e-01
	9.600000000000006e-01
	2.283794103553494e-01
	-2.283794103553496e-01
97		9.700000000000006e-01
	9.700000000000006e-01
	2.415213530108713e-01
	-2.415213530108713e-01
98		9.800000000000006e-01
	9.800000000000006e-01
	2.548434434458386e-01
	-2.548434434458386e-01
99		9.900000000000007e-01
	9.900000000000007e-01
	2.683338057415796e-01
	-2.683338057415796e-01
100		1.000000000000001e+00
	1.000000000000001e+00
	2.819815352000566e-01
	-2.819815352000565e-01
101		1.010000000000001e+00
	1.010000000000001e+00
	2.957766148779421e-01
	-2.957766148779422e-01
102		1.020000000000001e+00
	1.020000000000001e+00
	3.097098376959079e-01
	-3.097098376959080e-01
103		1.030000000000001e+00
	1.030000000000001e+00
	3.237727344156372e-01
	-3.237727344156371e-01
104		1.040000000000001e+00
	1.040000000000001e+00
	3.379575074958234e-01
	-3.379575074958234e-01
105		1.050000000000001e+00
	1.050000000000001e+00
	3.522569706552539e-01
	-3.522569706552539e-01
106		1.060000000000001e+00
	1.060000000000001e+00
	3.666644938578209e-01
	-3.666644938578210e-01
107		1.070000000000001e+00
	1.070000000000001e+00
	3.811739533702050e-01
	-3.811739533702050e-01
108		1.080000000000001e+00
	1.080000000000001e+00
	3.957796865127821e-01
	-3.957796865127823e-01
109		1.090000000000001e+00
	1.090000000000001e+00
	4.104764507169159e-01
	-4.104764507169159e-01
110		1.100000000000001e+00
	1.100000000000001e+00
	4.252593865093656e-01
	-4.252593865093657e-01
111		1.110000000000001e+00
	1.110000000000001e+00
	4.401239840614475e-01
	-4.401239840614477e-01
112		1.120000000000001e+00
	1.120000000000001e+00
	4.550660529629219e-01
	-4.550660529629218e-01
113		1.130000000000001e+00
	1.130000000000001e+00
	4.700816949056609e-01
	-4.700816949056610e-01
114		1.140000000000001e+00
	1.140000000000001e+00
	4.851672789881697e-01
	-4.851672789881696e-01
115		1.150000000000001e+00
	1.150000000000001e+00
	5.003194193777835e-01
	-5.003194193777833e-01
116		1.160000000000001e+00
	1.160000000000001e+00
	5.155349550921315e-01
	-5.155349550921315e-01
117		1.170000000000001e+00
	1.170000000000001e+00
	5.308109316847288e-01
	-5.308109316847289e-01
118		1.180000000000001e+00
	1.180000000000001e+00
	5.461445846411996e-01
	-5.461445846411999e-01
119		1.190000000000001e+00
	1.190000000000001e+00
	5.615333243124356e-01
	-5.615333243124359e-01
120		1.200000000000001e+00
	1.200000000000001e+00
	5.769747222290672e-01
	-5.769747222290671e-01
121		1.210000000000001e+00
	1.210000000000001e+00
	5.924664986579345e-01
	-5.924664986579344e-01
122		1.220000000000001e+00
	1.220000000000001e+00
	6.080065112759702e-01
	-6.080065112759703e-01
123		1.230000000000001e+00
	1.230000000000001e+00
	6.235927448500873e-01
	-6.235927448500875e-01
124		1.240000000000001e+00
	1.240000000000001e+00
	6.392233018234877e-01
	-6.392233018234879e-01
125		1.250000000000001e+00
	1.250000000000001e+00
	6.548963937193470e-01
	-6.548963937193473e-01
126		1.260000000000001e+00
	1.260000000000001e+00
	6.706103332822588e-01
	-6.706103332822586e-01
127		1.270000000000001e+00
	1.270000000000001e+00
	6.863635272861893e-01
	-6.863635272861892e-01
128		1.280000000000001e+00
	1.280000000000001e+00
	7.021544699451773e-01
	-7.021544699451772e-01
129		1.290000000000001e+00
	1.290000000000001e+00
	7.179817368696582e-01
	-7.179817368696582e-01
130		1.300000000000001e+00
	1.300000000000001e+00
	7.338439795172094e-01
	-7.338439795172094e-01
131		1.310000000000001e+00
	1.310000000000001e+00
	7.497399200917829e-01
	-7.497399200917831e-01
132		1.320000000000001e+00
	1.320000000000001e+00
	7.656683468502000e-01
	-7.656683468501999e-01
133		1.330000000000001e+00
	1.330000000000001e+00
	7.816281097788270e-01
	-7.816281097788269e-01
134		1.340000000000001e+00
	1.340000000000001e+00
	7.976181166071227e-01
	-7.976181166071228e-01
135		1.350000000000001e+00
	1.350000000000001e+00
	8.136373291280387e-01
	-8.136373291280388e-01
136		1.360000000000001e+00
	1.360000000000001e+00
	8.296847597982296e-01
	-8.296847597982298e-01
137		1.370000000000001e+00
	1.370000000000001e+00
	8.457594685936837e-01
	-8.457594685936838e-01
138		1.380000000000001e+00
	1.380000000000001e+00
	8.618605600987409e-01
	-8.618605600987408e-01
139		1.390000000000001e+00
	1.390000000000001e+00
	8.779871808086018e-01
	-8.779871808086017e-01
140		1.400000000000001e+00
	1.400000000000001e+00
	8.941385166272979e-01
	-8.941385166272979e-01
141		1.410000000000001e+00
	1.410000000000001e+00
	9.103137905448252e-01
	-9.103137905448253e-01
142		1.420000000000001e+00
	1.420000000000001e+00
	9.265122604786408e-01
	-9.265122604786409e-01
143		1.430000000000001e+00
	1.430000000000001e+00
	9.427332172661081e-01
	-9.427332172661085e-01
144		1.440000000000001e+00
	1.440000000000001e+00
	9.589759827956934e-01
	-9.589759827956932e-01
145		1.450000000000001e+00
	1.450000000000001e+00
	9.752399082658311e-01
	-9.752399082658310e-01
146		1.460000000000001e+00
	1.460000000000001e+00
	9.915243725613659e-01
	-9.915243725613658e-01
147		1.470000000000001e+00
	1.470000000000001e+00
	1.007828780738381e+00
	-1.007828780738381e+00
148		1.480000000000001e+00
	1.480000000000001e+00
	1.024152562609016e+00
	-1.024152562609016e+00
149		1.490000000000001e+00
	1.490000000000001e+00
	1.040495171418654e+00
	-1.040495171418654e+00
150		1.500000000000001e+00
	1.500000000000001e+00
	1.056856082608435e+00
	-1.056856082608435e+00
151		1.510000000000001e+00
	1.510000000000001e+00
	1.073234792656756e+00
	-1.073234792656756e+00
152		1.520000000000001e+00
	1.520000000000001e+00
	1.089630817993860e+00
	-1.089630817993860e+00
153		1.530000000000001e+00
	1.530000000000001e+00
	1.106043693984174e+00
	-1.106043693984174e+00
154		1.540000000000001e+00
	1.540000000000001e+00
	1.122472973971477e+00
	-1.122472973971477e+00
155		1.550000000000001e+00
	1.550000000000001e+00
	1.138918228382371e+00
	-1.138918228382372e+00
156		1.560000000000001e+00
	1.560000000000001e+00
	1.155379043883926e+00
	-1.155379043883926e+00
157		1.570000000000001e+00
	1.570000000000001e+00
	1.171855022591668e+00
	-1.171855022591668e+00
158		1.580000000000001e+00
	1.580000000000001e+00
	1.188345781324413e+00
	-1.188345781324413e+00
159		1.590000000000001e+00
	1.590000000000001e+00
	1.204850950902723e+00
	-1.204850950902723e+00
160		1.600000000000001e+00
	1.600000000000001e+00
	1.221370175487978e+00
	-1.221370175487978e+00
161		1.610000000000001e+00
	1.610000000000001e+00
	1.237903111959354e+00
	-1.237903111959354e+00
162		1.620000000000001e+00
	1.620000000000001e+00
	1.254449429326141e+00
	-1.254449429326140e+00
163		1.630000000000001e+00
	1.630000000000001e+00
	1.271008808173065e+00
	-1.271008808173065e+00
164		1.640000000000001e+00
	1.640000000000001e+00
	1.287580940136466e+00
	-1.287580940136466e+00
165		1.650000000000001e+00
	1.650000000000001e+00
	1.304165527409293e+00
	-1.304165527409293e+00
166		1.660000000000001e+00
	1.660000000000001e+00
	1.320762282273090e+00
	-1.320762282273090e+00
167		1.670000000000001e+00
	1.670000000000001e+00
	1.337370926655240e+00
	-1.337370926655240e+00
168		1.680000000000001e+00
	1.680000000000001e+00
	1.353991191709864e+00
	-1.353991191709864e+00
169		1.690000000000001e+00
	1.690000000000001e+00
	1.370622817420909e+00
	-1.370622817420909e+00
170		1.700000000000001e+00
	1.700000000000001e+00
	1.387265552226043e+00
	-1.387265552226043e+00
171		1.710000000000001e+00
	1.710000000000001e+00
	1.403919152660073e+00
	-1.403919152660073e+00
172		1.720000000000001e+00
	1.720000000000001e+00
	1.420583383016706e+00
	-1.420583383016706e+00
173		1.730000000000001e+00
	1.730000000000001e+00
	1.437258015027548e+00
	-1.437258015027549e+00
174		1.740000000000001e+00
	1.740000000000001e+00
	1.453942827557305e+00
	-1.453942827557305e+00
175		1.750000000000001e+00
	1.750000000000001e+00
	1.470637606314221e+00
	-1.470637606314221e+00
176		1.760000000000001e+00
	1.760000000000001e+00
	1.487342143574880e+00
	-1.487342143574880e+00
177		1.770000000000001e+00
	1.770000000000001e+00
	1.504056237922512e+00
	-1.504056237922512e+00
178		1.780000000000001e+00
	1.780000000000001e+00
	1.520779693998040e+00
	-1.520779693998040e+00
179		1.790000000000001e+00
	1.790000000000001e+00
	1.537512322263133e+00
	-1.537512322263133e+00
180		1.800000000000001e+00
	1.800000000000001e+00
	1.554253938774587e+00
	-1.554253938774587e+00
181		1.810000000000001e+00
	1.810000000000001e+00
	1.571004364969397e+00
	-1.571004364969397e+00
182		1.820000000000001e+00
	1.820000000000001e+00
	1.587763427459925e+00
	-1.587763427459925e+00
183		1.830000000000001e+00
	1.830000000000001e+00
	1.604530957838608e+00
	-1.604530957838608e+00
184		1.840000000000001e+00
	1.840000000000001e+00
	1.621306792491674e+00
	-1.621306792491674e+00
185		1.850000000000001e+00
	1.850000000000001e+00
	1.638090772421395e+00
	-1.638090772421395e+00
186		1.860000000000001e+00
	1.860000000000001e+00
	1.654882743076405e+00
	-1.654882743076404e+00
187		1.870000000000001e+00
	1.870000000000001e+00
	1.671682554189641e+00
	-1.671682554189641e+00
188		1.880000000000001e+00
	1.880000000000001e+00
	1.688490059623539e+00
	-1.688490059623539e+00
189		1.890000000000001e+00
	1.890000000000001e+00
	1.705305117222061e+00
	-1.705305117222061e+00
190		1.900000000000001e+00
	1.900000000000001e+00
	1.722127588669228e+00
	-1.722127588669228e+00
191		1.910000000000001e+00
	1.910000000000001e+00
	1.738957339353812e+00
	-1.738957339353812e+00
192		1.920000000000001e+00
	1.920000000000001e+00
	1.755794238239863e+00
	-1.755794238239863e+00
193		1.930000000000001e+00
	1.930000000000001e+00
	1.772638157742792e+00
	-1.772638157742792e+00
194		1.940000000000002e+00
	1.940000000000002e+00
	1.789488973610716e+00
	-1.789488973610716e+00
195		1.950000000000002e+00
	1.950000000000002e+00
	1.806346564810802e+00
	-1.806346564810802e+00
196		1.960000000000002e+00
	1.960000000000002e+00
	1.823210813420369e+00
	-1.823210813420369e+00
197		1.970000000000002e+00
	1.970000000000002e+00
	1.840081604522508e+00
	-1.840081604522508e+00
198		1.980000000000002e+00
	1.980000000000002e+00
	1.856958826106000e+00
	-1.856958826106000e+00
199		1.990000000000002e+00
	1.990000000000002e+00
	1.873842368969323e+00
	-1.873842368969323e+00
200		2.000000000000000e+00
	2.000000000000000e+00
	1.890732126628550e+00
	-1.890732126628550e+00
